LVs	V(G)/Vlvs	SE	zscore	pval	LV_AUC	pwys
26	0.4741	0.197843	2.39634457625491	0.00827975737743769	0.622895622895623	1.REACTOME_CELL_CYCLE_MITOTIC,
38	0.41138	0.186073	2.21085272984259	0.0135230184884433	0	no-related-pathways
80	0.333798	0.189365	1.7627227840414	0.0389736280403621	0.332225913621262	1.KEGG_PRIMARY_IMMUNODEFICIENCY,
54	0.313052	0.194231	1.6117509563355	0.0535080721585145	0.331034482758621	1.KEGG_PATHWAYS_IN_CANCER,
88	0.282202	0.190059	1.48481261082085	0.0687967351795605	0	no-related-pathways
35	0.258327	0.166696	1.54968925469117	0.0606080592178839	0	no-related-pathways
85	0.250376	0.165707	1.51095608513823	0.0653998199528725	1	1.REACTOME_GASTRIN_CREB_SIGNALLING_PATHWAY_VIA_PKC_AND_MAPK,2.REACTOME_G_ALPHA_Q_SIGNALLING_EVENTS,
42	0.226743	0.169749	1.33575455525511	0.0908147556213947	0.61026936026936	1.REACTOME_CELL_CYCLE_MITOTIC,
50	0.219483	0.184647	1.18866269151408	0.117286213702807	0.840753424657534	1.REACTOME_AXON_GUIDANCE,2.KEGG_FOCAL_ADHESION,
69	0.216827	0.177234	1.22339393118702	0.110590472222538	0	no-related-pathways
70	0.216653	0.178514	1.21364710891023	0.112441254807283	0.607744107744108	1.REACTOME_GENERIC_TRANSCRIPTION_PATHWAY,
30	0.210038	0.167121	1.25680195786287	0.104412678465002	0.63953488372093	1.KEGG_CELL_ADHESION_MOLECULES_CAMS,
103	0.206408	0.147248	1.40177116157775	0.0804917963542482	0.930232558139535	1.REACTOME_METABOLISM_OF_PROTEINS,
99	0.201508	0.14229	1.41617822756343	0.0783616644132655	0.602787456445993	1.REACTOME_NEURONAL_SYSTEM,2.REACTOME_CLASS_A1_RHODOPSIN_LIKE_RECEPTORS,
93	0.201067	0.161693	1.24351085080987	0.10683982247405	0.308833922261484	1.REACTOME_SIGNALING_BY_GPCR,
48	0.199018	0.129364	1.53843418570854	0.061971244496528	0.935606060606061	1.REACTOME_HEMOSTASIS,2.REACTOME_GPCR_LIGAND_BINDING,3.PID_CMYB_PATHWAY,
92	0.182783	0.151536	1.20620182662866	0.113869839902352	0.485690235690236	1.REACTOME_IMMUNOREGULATORY_INTERACTIONS_BETWEEN_A_LYMPHOID_AND_A_NON_LYMPHOID_CELL,
4	0.181152	0.171796	1.05445994086009	0.14583619588394	1	1.REACTOME_TRANSMISSION_ACROSS_CHEMICAL_SYNAPSES,2.KEGG_CYTOKINE_CYTOKINE_RECEPTOR_INTERACTION,3.KEGG_CELL_ADHESION_MOLECULES_CAMS,
113	0.178136	0.177548	1.00331178047627	0.157855226961878	0.358333333333333	1.REACTOME_AXON_GUIDANCE,
53	0.172953	0.116417	1.48563354149308	0.0686880390300419	0.257575757575758	1.REACTOME_GENERIC_TRANSCRIPTION_PATHWAY,
90	0.167045	0.141991	1.17644780302977	0.11970798947829	0	no-related-pathways
66	0.16182	0.17126	0.944879131145626	0.172360293425508	0.361774744027304	1.KEGG_CYTOKINE_CYTOKINE_RECEPTOR_INTERACTION,
34	0.143312	0.149847	0.956388849960293	0.169437907921917	0.661003861003861	1.REACTOME_IMMUNE_SYSTEM,2.REACTOME_CYTOKINE_SIGNALING_IN_IMMUNE_SYSTEM,
37	0.136391	0.131859	1.03437004679241	0.150481600888007	0.572390572390572	1.REACTOME_CELL_CYCLE_MITOTIC,
13	0.133563	0.137903	0.968528603438649	0.166390220462683	0	no-related-pathways
78	0.13052	0.152794	0.854222024425043	0.196490991071303	0.627986348122867	1.REACTOME_GPCR_LIGAND_BINDING,2.REACTOME_CLASS_A1_RHODOPSIN_LIKE_RECEPTORS,
19	0.129948	0.127025	1.02301121826412	0.153151270853707	0.573529411764706	1.REACTOME_GPCR_DOWNSTREAM_SIGNALING,
83	0.123749	0.110809	1.11677751807164	0.132044731870267	0.733449477351916	1.REACTOME_METABOLISM_OF_PROTEINS,2.REACTOME_CELL_CYCLE_MITOTIC,
32	0.113324	0.101195	1.11985770047927	0.131387203096328	0	no-related-pathways
89	0.100488	0.114619	0.87671328488296	0.190321194566404	0.685763888888889	1.REACTOME_GENERIC_TRANSCRIPTION_PATHWAY,2.PID_P53DOWNSTREAMPATHWAY,
39	0.09605	0.099408	0.966220022533398	0.166967047932783	0.502824858757062	1.PID_TCR_PATHWAY,
21	0.094069	0.086803	1.08370678432773	0.139247413301078	0.632205513784461	1.REACTOME_TRANSMISSION_ACROSS_CHEMICAL_SYNAPSES,2.KEGG_CYTOKINE_CYTOKINE_RECEPTOR_INTERACTION,3.REACTOME_GPCR_LIGAND_BINDING,
43	0.09343	0.131759	0.709097670747349	0.239131934156158	0.851239669421488	1.REACTOME_IMMUNE_SYSTEM,2.REACTOME_ADAPTIVE_IMMUNE_SYSTEM,3.PID_P53DOWNSTREAMPATHWAY,
111	0.091418	0.09289	0.984153299601679	0.162520071824255	0.222996515679443	1.REACTOME_TRANSMISSION_ACROSS_CHEMICAL_SYNAPSES,2.REACTOME_GENERIC_TRANSCRIPTION_PATHWAY,
55	0.09133	0.089795	1.01709449301186	0.154554239903318	0.396825396825397	1.KEGG_MAPK_SIGNALING_PATHWAY,
87	0.088055	0.118989	0.740026388993941	0.229641991104992	0.511029411764706	1.REACTOME_IMMUNOREGULATORY_INTERACTIONS_BETWEEN_A_LYMPHOID_AND_A_NON_LYMPHOID_CELL,2.REACTOME_ADAPTIVE_IMMUNE_SYSTEM,
77	0.08798	0.08097	1.08657527479313	0.13861227853858	0.506644518272425	1.KEGG_WNT_SIGNALING_PATHWAY,
49	0.086144	0.101963	0.844855486794229	0.199095765063974	0.240802675585284	1.REACTOME_METABOLISM_OF_LIPIDS_AND_LIPOPROTEINS,
84	0.085021	0.081361	1.0449846978282	0.148015020957915	0.549469964664311	1.PID_TCR_PATHWAY,2.KEGG_JAK_STAT_SIGNALING_PATHWAY,
109	0.081488	0.10155	0.802442146725751	0.211148620656208	0.51097972972973	1.REACTOME_CELL_CYCLE,2.REACTOME_CELL_CYCLE_MITOTIC,
114	0.076657	0.100489	0.76283971379952	0.222779496660738	0	no-related-pathways
67	0.075258	0.079662	0.944716426903668	0.172401834144687	0	no-related-pathways
12	0.073609	0.10344	0.711610595514308	0.238352972020166	0.673913043478261	1.REACTOME_G_ALPHA_Q_SIGNALLING_EVENTS,
74	0.073245	0.130349	0.561914552470675	0.287087119095309	0	no-related-pathways
25	0.072739	0.110069	0.660849103744015	0.254354544373408	0	no-related-pathways
112	0.072324	0.087321	0.828254371800598	0.203763228703719	0.825783972125436	1.REACTOME_MRNA_PROCESSING,2.REACTOME_CELL_CYCLE_MITOTIC,
36	0.070831	0.062297	1.13698894007737	0.12777145459627	0	no-related-pathways
31	0.070123	0.083397	0.840833603127211	0.200220579610895	0	no-related-pathways
2	0.067913	0.073994	0.917817660891424	0.179357167283575	0.752049180327869	1.REACTOME_COSTIMULATION_BY_THE_CD28_FAMILY,2.REACTOME_IMMUNE_SYSTEM,3.KEGG_CHEMOKINE_SIGNALING_PATHWAY,
7	0.066182	0.091332	0.72463101651119	0.234339212771574	0.525735294117647	1.REACTOME_CELL_CYCLE,2.REACTOME_HEMOSTASIS,
11	0.065607	0.081238	0.807590044068047	0.209663309965795	0	no-related-pathways
73	0.063625	0.081411	0.78152829470219	0.217245920923785	0.470175438596491	1.REACTOME_CELL_CYCLE,2.REACTOME_NEURONAL_SYSTEM,
97	0.061559	0.084904	0.725042400829172	0.234213009333328	0.493226600985222	1.REACTOME_CELL_CYCLE,2.REACTOME_IMMUNOREGULATORY_INTERACTIONS_BETWEEN_A_LYMPHOID_AND_A_NON_LYMPHOID_CELL,3.REACTOME_GENERIC_TRANSCRIPTION_PATHWAY,
20	0.061385	0.075879	0.808985358267768	0.2092617841473	0	no-related-pathways
3	0.060223	0.095321	0.631791525477072	0.263761555977339	0.897233201581028	1.REACTOME_IMMUNOREGULATORY_INTERACTIONS_BETWEEN_A_LYMPHOID_AND_A_NON_LYMPHOID_CELL,2.REACTOME_GASTRIN_CREB_SIGNALLING_PATHWAY_VIA_PKC_AND_MAPK,3.KEGG_NATURAL_KILLER_CELL_MEDIATED_CYTOTOXICITY,
91	0.054387	0.075124	0.723963047761035	0.234544210675393	0	no-related-pathways
60	0.051637	0.080699	0.63987162170535	0.261128032346263	0.227272727272727	1.REACTOME_GENERIC_TRANSCRIPTION_PATHWAY,
65	0.050255	0.107287	0.468416490348318	0.319743388848297	0	no-related-pathways
106	0.046237	0.066962	0.690496102266957	0.244941130118362	0	no-related-pathways
24	0.043515	0.056864	0.765246904895892	0.222062266995407	0	no-related-pathways
6	0.043488	0.084804	0.512805999716994	0.30404351624633	0.282327586206897	1.KEGG_PATHWAYS_IN_CANCER,
46	0.039921	0.070571	0.565685621572601	0.285803755633341	0	no-related-pathways
104	0.039573	0.072563	0.545360583217342	0.292752772210601	0.302013422818792	1.REACTOME_CLASS_A1_RHODOPSIN_LIKE_RECEPTORS,
17	0.038046	0.06046	0.629275554085346	0.264584336333179	0.394648829431438	1.REACTOME_METABOLISM_OF_CARBOHYDRATES,
76	0.036439	0.053301	0.683645710211816	0.247099456513653	0.639455782312925	1.KEGG_MAPK_SIGNALING_PATHWAY,
47	0.035147	0.048476	0.725039194653024	0.23421399277041	0.127118644067797	1.REACTOME_DEVELOPMENTAL_BIOLOGY,
5	0.034111	0.043106	0.791328353361481	0.21437620352702	0.581834532374101	1.REACTOME_SIGNALING_BY_ERBB2,2.KEGG_CHEMOKINE_SIGNALING_PATHWAY,3.REACTOME_GASTRIN_CREB_SIGNALLING_PATHWAY_VIA_PKC_AND_MAPK,
64	0.030828	0.050304	0.612833969465649	0.269993063614403	0	no-related-pathways
81	0.029585	0.053185	0.556265864435461	0.289014559551649	0	no-related-pathways
14	0.024968	0.061511	0.405911137845263	0.342403947039646	0.627926421404682	1.REACTOME_METABOLISM_OF_CARBOHYDRATES,
61	0.02328	0.049324	0.471981185629714	0.318470108965871	0.579661016949153	1.PID_TCR_PATHWAY,
58	0.023184	0.04693	0.494012358832303	0.31064872564524	0.349667774086379	1.REACTOME_SIGNALING_BY_ERBB2,
57	0.021939	0.073926	0.296769742715689	0.383321153571104	0.600595238095238	1.REACTOME_GENERIC_TRANSCRIPTION_PATHWAY,2.KEGG_MAPK_SIGNALING_PATHWAY,
100	0.021731	0.046241	0.469950909366147	0.319195045402499	0	no-related-pathways
27	0.021435	0.05528	0.387753256150506	0.349099320206182	1	1.PID_TCR_PATHWAY,2.KEGG_CELL_ADHESION_MOLECULES_CAMS,3.REACTOME_TCR_SIGNALING,
40	0.01959	0.058148	0.336898947513242	0.368096539376012	0.574166666666667	1.REACTOME_NEURONAL_SYSTEM,
59	0.01745	0.05598	0.311718470882458	0.377627244592853	0.835164835164835	1.KEGG_CELL_ADHESION_MOLECULES_CAMS,2.REACTOME_GPCR_DOWNSTREAM_SIGNALING,3.REACTOME_SIGNALING_BY_GPCR,
82	0.01703	0.047031	0.362101592566605	0.358638056796936	0.918439716312057	1.KEGG_CELL_ADHESION_MOLECULES_CAMS,2.REACTOME_COSTIMULATION_BY_THE_CD28_FAMILY,3.KEGG_T_CELL_RECEPTOR_SIGNALING_PATHWAY,
63	0.016896	0.048002	0.351985333944419	0.36242463068559	0.572742474916388	1.REACTOME_METABOLISM_OF_CARBOHYDRATES,
44	0.015163	0.043763	0.346479903114503	0.364491042490704	0.256711409395973	1.REACTOME_HIV_INFECTION,
22	0.013631	0.0369	0.36940379403794	0.355913385216166	0.611295681063123	1.PID_CMYB_PATHWAY,
23	0.012398	0.044944	0.275854396582414	0.391329950771702	0.459459459459459	1.PID_CD8TCRDOWNSTREAMPATHWAY,
105	0.008673	0.038492	0.22531954691884	0.410865347184706	0.498338870431894	1.PID_P53DOWNSTREAMPATHWAY,
1	0.008607	0.034333	0.250691754288877	0.401026218137649	0.269933554817276	1.PID_P53DOWNSTREAMPATHWAY,
101	0.002314	0.031541	0.073364826733458	0.470757903171189	0.283783783783784	1.REACTOME_TRANSMEMBRANE_TRANSPORT_OF_SMALL_MOLECULES,
33	0.001101	0.028541	0.0385760835289583	0.48461418533754	0	no-related-pathways
9	0.001023	0.031544	0.0324308901851382	0.48706421431651	0	no-related-pathways
8	1e-06	0.130882	7.64047004171697e-06	0.499996951893458	0.62	1.REACTOME_AXON_GUIDANCE,
10	1e-06	0.03537	2.82725473565168e-05	0.499988720885486	0.557308970099668	1.PID_P53DOWNSTREAMPATHWAY,
15	1e-06	0.063488	1.57510080645161e-05	0.499993716256924	1	1.REACTOME_GPCR_DOWNSTREAM_SIGNALING,2.REACTOME_GPCR_LIGAND_BINDING,
16	1e-06	0.032723	3.05595452739663e-05	0.499987808505322	0.744107744107744	1.REACTOME_GENERIC_TRANSCRIPTION_PATHWAY,
18	1e-06	0.168186	5.94579810447956e-06	0.499997627969745	0.834545454545455	1.REACTOME_CLASS_A1_RHODOPSIN_LIKE_RECEPTORS,2.KEGG_T_CELL_RECEPTOR_SIGNALING_PATHWAY,
28	1e-06	0.080542	1.24158823967619e-05	0.499995046779564	0	no-related-pathways
29	1e-06	0.042913	2.33029618064456e-05	0.499990703463278	0.60121107266436	1.REACTOME_NEURONAL_SYSTEM,2.REACTOME_TRANSMEMBRANE_TRANSPORT_OF_SMALL_MOLECULES,
41	1e-06	0.047438	2.10801467178212e-05	0.499991590238198	0.540268456375839	1.REACTOME_PLATELET_ACTIVATION_SIGNALING_AND_AGGREGATION,
45	1e-06	0.136324	7.33546550864118e-06	0.499997073572662	0.458477508650519	1.REACTOME_GPCR_DOWNSTREAM_SIGNALING,
51	1e-06	0.062577	1.59803122553015e-05	0.499993624777788	0.563839285714286	1.REACTOME_SLC_MEDIATED_TRANSMEMBRANE_TRANSPORT,2.KEGG_PATHWAYS_IN_CANCER,
52	1e-06	0.133151	7.5102702946279e-06	0.499997003835642	0.473995271867612	1.REACTOME_AXON_GUIDANCE,2.REACTOME_GPCR_LIGAND_BINDING,
56	1e-06	0.162241	6.1636700957218e-06	0.499997541051396	0	no-related-pathways
62	1e-06	0.045232	2.21082419525999e-05	0.499991180087541	0	no-related-pathways
68	1e-06	0.062529	1.59925794431384e-05	0.499993619883888	0.424242424242424	1.REACTOME_GENERIC_TRANSCRIPTION_PATHWAY,
71	1e-06	0.078031	1.28154195127577e-05	0.499994887387315	0	no-related-pathways
72	1e-06	0.100864	9.91434010152284e-06	0.499996044750551	0.989399293286219	1.PID_IL12_2PATHWAY,2.REACTOME_CLASS_A1_RHODOPSIN_LIKE_RECEPTORS,
75	1e-06	0.126316	7.91665347224421e-06	0.499996841712211	0.505	1.REACTOME_AXON_GUIDANCE,
79	1e-06	0.088874	1.12518846906857e-05	0.499995511147463	0.692176870748299	1.KEGG_MAPK_SIGNALING_PATHWAY,
86	1e-06	0.073887	1.35341805730372e-05	0.499994600643139	0.412207357859532	1.REACTOME_GASTRIN_CREB_SIGNALLING_PATHWAY_VIA_PKC_AND_MAPK,
94	1e-06	0.075805	1.31917419695271e-05	0.499994737256376	0.399501661129568	1.PID_CMYB_PATHWAY,
95	1e-06	0.040872	2.44666275200626e-05	0.499990239227824	0.651624548736462	1.REACTOME_GENERIC_TRANSCRIPTION_PATHWAY,2.KEGG_PATHWAYS_IN_CANCER,
96	1e-06	0.045659	2.19014871109748e-05	0.499991262570788	0.470790378006873	1.KEGG_NATURAL_KILLER_CELL_MEDIATED_CYTOTOXICITY,
98	1e-06	0.157953	6.33099719536824e-06	0.499997474297542	0	no-related-pathways
102	1e-06	0.08238	1.21388686574411e-05	0.499995157292056	0	no-related-pathways
107	1e-06	0.040772	2.45266359266163e-05	0.499990215287934	0.659722222222222	1.REACTOME_CELL_CYCLE,2.KEGG_WNT_SIGNALING_PATHWAY,
108	1e-06	0.062427	1.60187098531084e-05	0.499993609459362	0	no-related-pathways
110	1e-06	0.118493	8.43931709046104e-06	0.499996633199595	0.746503496503496	1.REACTOME_METABOLISM_OF_PROTEINS,2.REACTOME_CELL_CYCLE,
